!Keysight Technologies,P9371A,MY57213205,A.13.10.05
!Date: Wednesday, April 16, 2025 10:01:49
!Correction: S11(Off) 
!S21(Off) 
!S12(Off) 
!S22(Off) 
!S2P File: Measurements: S11, S21, S12, S22:
# Hz S  RI   R 50
1000000 0.96579278 -0.15321797 -6.1471452e-005 -0.00015075809 7.071068e-011 7.071068e-011 7.071068e-011 7.071068e-011
1118000 0.96569324 -0.14514616 2.3173458e-005 -8.724528e-005 7.071068e-011 7.071068e-011 7.071068e-011 7.071068e-011
1236000 0.96558142 -0.13712713 4.9648002e-005 3.1653515e-005 7.071068e-011 7.071068e-011 7.071068e-011 7.071068e-011
1354000 0.96532851 -0.12912682 2.5828158e-005 -5.7735251e-005 7.071068e-011 7.071068e-011 7.071068e-011 7.071068e-011
1472000 0.96510822 -0.12126613 -7.3421332e-005 -9.2631286e-005 7.071068e-011 7.071068e-011 7.071068e-011 7.071068e-011
1590000 0.96497947 -0.11576511 7.4317511e-005 -1.5864185e-005 7.071068e-011 7.071068e-011 7.071068e-011 7.071068e-011
1708000 0.96481639 -0.11146776 -0.0001558573 6.3711479e-005 7.071068e-011 7.071068e-011 7.071068e-011 7.071068e-011
1826000 0.96461666 -0.10699286 -1.0536104e-005 5.3879117e-005 7.071068e-011 7.071068e-011 7.071068e-011 7.071068e-011
1944000 0.96455264 -0.10247935 -3.4663182e-005 3.5535599e-005 7.071068e-011 7.071068e-011 7.071068e-011 7.071068e-011
2062000 0.96444649 -0.099897444 -9.8555509e-005 -9.300957e-005 7.071068e-011 7.071068e-011 7.071068e-011 7.071068e-011
2180000 0.96432513 -0.099245086 1.7766029e-006 1.119928e-005 7.071068e-011 7.071068e-011 7.071068e-011 7.071068e-011
2298000 0.96402204 -0.098447673 4.8429083e-005 1.3302612e-005 7.071068e-011 7.071068e-011 7.071068e-011 7.071068e-011
2416000 0.96397901 -0.097837605 4.2674612e-005 7.1144161e-005 7.071068e-011 7.071068e-011 7.071068e-011 7.071068e-011
2534000 0.96379954 -0.096831672 -7.5834301e-005 6.612327e-005 7.071068e-011 7.071068e-011 7.071068e-011 7.071068e-011
2652000 0.96373695 -0.096027382 -5.8546038e-006 9.9718354e-006 7.071068e-011 7.071068e-011 7.071068e-011 7.071068e-011
2770000 0.96358132 -0.09524551 4.9652172e-005 5.4686821e-005 7.071068e-011 7.071068e-011 7.071068e-011 7.071068e-011
2888000 0.96371305 -0.094491936 -2.5450081e-006 -9.3393683e-005 7.071068e-011 7.071068e-011 7.071068e-011 7.071068e-011
3006000 0.96352208 -0.093980737 5.9255053e-005 -0.00016200893 7.071068e-011 7.071068e-011 7.071068e-011 7.071068e-011
3124000 0.96353626 -0.094258867 -7.3595904e-005 -6.6964262e-006 7.071068e-011 7.071068e-011 7.071068e-011 7.071068e-011
3242000 0.96298689 -0.094487704 -4.722716e-005 9.7163182e-005 7.071068e-011 7.071068e-011 7.071068e-011 7.071068e-011
3360000 0.96311104 -0.094618089 8.5827167e-005 -9.2530841e-005 7.071068e-011 7.071068e-011 7.071068e-011 7.071068e-011
3478000 0.96272063 -0.094658323 -6.7072782e-005 6.1812454e-005 7.071068e-011 7.071068e-011 7.071068e-011 7.071068e-011
3596000 0.96245778 -0.094908878 -3.8987801e-005 5.9768652e-005 7.071068e-011 7.071068e-011 7.071068e-011 7.071068e-011
3714000 0.96242607 -0.094992295 4.1280378e-005 -2.5202673e-006 7.071068e-011 7.071068e-011 7.071068e-011 7.071068e-011
3832000 0.96222061 -0.095353954 -6.9676462e-005 8.0808004e-006 7.071068e-011 7.071068e-011 7.071068e-011 7.071068e-011
3950000 0.96184415 -0.095351502 -0.00011213278 2.8158582e-005 7.071068e-011 7.071068e-011 7.071068e-011 7.071068e-011
4068000 0.96148753 -0.095831491 -2.7366965e-005 -8.1238419e-008 7.071068e-011 7.071068e-011 7.071068e-011 7.071068e-011
4186000 0.96169472 -0.096498236 -5.9584221e-007 6.1401697e-005 7.071068e-011 7.071068e-011 7.071068e-011 7.071068e-011
4304000 0.96132159 -0.097151943 1.0944555e-005 -6.1297203e-007 7.071068e-011 7.071068e-011 7.071068e-011 7.071068e-011
4422000 0.96108645 -0.098088384 1.4471059e-005 6.6070606e-005 7.071068e-011 7.071068e-011 7.071068e-011 7.071068e-011
4540000 0.9608084 -0.098912619 4.9070812e-005 -5.5103003e-005 7.071068e-011 7.071068e-011 7.071068e-011 7.071068e-011
4658000 0.96039391 -0.099474303 -4.0690398e-007 -3.6127851e-005 7.071068e-011 7.071068e-011 7.071068e-011 7.071068e-011
4776000 0.95985448 -0.099948682 -2.093659e-005 1.320029e-005 7.071068e-011 7.071068e-011 7.071068e-011 7.071068e-011
4894000 0.95986408 -0.1005937 5.1950501e-005 -3.4580229e-005 7.071068e-011 7.071068e-011 7.071068e-011 7.071068e-011
5012000 0.95967907 -0.10135245 3.5275967e-005 -1.8822444e-005 7.071068e-011 7.071068e-011 7.071068e-011 7.071068e-011
5130000 0.95945084 -0.10208983 1.5412097e-005 -5.4008844e-005 7.071068e-011 7.071068e-011 7.071068e-011 7.071068e-011
5248000 0.95916373 -0.10309352 7.9018391e-005 -1.9713765e-005 7.071068e-011 7.071068e-011 7.071068e-011 7.071068e-011
5366000 0.95876521 -0.10382559 -9.5600655e-005 -8.9633955e-005 7.071068e-011 7.071068e-011 7.071068e-011 7.071068e-011
5484000 0.95856094 -0.10482214 -7.0248847e-005 9.7337273e-005 7.071068e-011 7.071068e-011 7.071068e-011 7.071068e-011
5602000 0.95808405 -0.10538081 6.7838831e-005 8.1053979e-005 7.071068e-011 7.071068e-011 7.071068e-011 7.071068e-011
5720000 0.957757 -0.10594054 -3.5653284e-005 5.1628256e-005 7.071068e-011 7.071068e-011 7.071068e-011 7.071068e-011
5838000 0.95748281 -0.1066299 6.4017338e-005 -7.6085666e-006 7.071068e-011 7.071068e-011 7.071068e-011 7.071068e-011
5956000 0.95700228 -0.10744813 -1.461535e-005 -9.2939626e-005 7.071068e-011 7.071068e-011 7.071068e-011 7.071068e-011
6074000 0.95725775 -0.10834149 2.3251681e-005 -3.6239337e-005 7.071068e-011 7.071068e-011 7.071068e-011 7.071068e-011
6192000 0.95720559 -0.10912202 2.1541106e-005 2.1257956e-005 7.071068e-011 7.071068e-011 7.071068e-011 7.071068e-011
6310000 0.95735449 -0.11021136 1.0376299e-005 0.00012133047 7.071068e-011 7.071068e-011 7.071068e-011 7.071068e-011
6428000 0.95696062 -0.11101019 9.5066367e-005 3.4185359e-005 7.071068e-011 7.071068e-011 7.071068e-011 7.071068e-011
6546000 0.95688277 -0.11199376 -4.2103344e-005 -1.3240542e-005 7.071068e-011 7.071068e-011 7.071068e-011 7.071068e-011
6664000 0.95658165 -0.11305659 2.4444256e-005 5.4015858e-005 7.071068e-011 7.071068e-011 7.071068e-011 7.071068e-011
6782000 0.95625502 -0.11442907 3.1317279e-005 0.00012952149 7.071068e-011 7.071068e-011 7.071068e-011 7.071068e-011
6900000 0.95599282 -0.11464328 9.9308731e-005 2.556176e-005 7.071068e-011 7.071068e-011 7.071068e-011 7.071068e-011
7018000 0.956339 -0.11643808 0.00016234569 2.2574449e-007 7.071068e-011 7.071068e-011 7.071068e-011 7.071068e-011
7136000 0.95673108 -0.11859892 4.2789427e-005 -0.00015689255 7.071068e-011 7.071068e-011 7.071068e-011 7.071068e-011
7254000 0.95706636 -0.12023726 8.152193e-006 -0.00011149952 7.071068e-011 7.071068e-011 7.071068e-011 7.071068e-011
7372000 0.95686233 -0.12239947 4.0072973e-005 6.7990935e-005 7.071068e-011 7.071068e-011 7.071068e-011 7.071068e-011
7490000 0.95716602 -0.1237186 0.00010697174 -9.7849743e-006 7.071068e-011 7.071068e-011 7.071068e-011 7.071068e-011
7608000 0.95697236 -0.12563619 6.5786502e-005 4.6919125e-005 7.071068e-011 7.071068e-011 7.071068e-011 7.071068e-011
7726000 0.95664632 -0.12754178 0.00014777057 3.4495057e-005 7.071068e-011 7.071068e-011 7.071068e-011 7.071068e-011
7844000 0.95634389 -0.1295995 -8.0802805e-005 6.6966903e-005 7.071068e-011 7.071068e-011 7.071068e-011 7.071068e-011
7962000 0.95541 -0.13154681 -8.4623432e-005 0.00013002339 7.071068e-011 7.071068e-011 7.071068e-011 7.071068e-011
8080000 0.95558608 -0.13414301 7.4114163e-005 4.1596519e-005 7.071068e-011 7.071068e-011 7.071068e-011 7.071068e-011
8198000 0.95550221 -0.13750966 6.1684645e-005 -5.4525221e-006 7.071068e-011 7.071068e-011 7.071068e-011 7.071068e-011
8316000 0.9554565 -0.14008822 -8.8672256e-005 -0.00015196502 7.071068e-011 7.071068e-011 7.071068e-011 7.071068e-011
8434000 0.95520312 -0.14255632 5.0955779e-005 5.0002229e-005 7.071068e-011 7.071068e-011 7.071068e-011 7.071068e-011
8552000 0.95469993 -0.144805 0.00014060513 -1.1792015e-005 7.071068e-011 7.071068e-011 7.071068e-011 7.071068e-011
8670000 0.9538973 -0.14694396 -6.1006713e-006 -0.00010367708 7.071068e-011 7.071068e-011 7.071068e-011 7.071068e-011
8788000 0.953004 -0.14889035 7.4978263e-005 -4.799154e-005 7.071068e-011 7.071068e-011 7.071068e-011 7.071068e-011
8906000 0.95201659 -0.15048975 4.2647323e-005 -2.9133411e-005 7.071068e-011 7.071068e-011 7.071068e-011 7.071068e-011
9024000 0.95124912 -0.15186118 -4.508315e-005 0.00012687758 7.071068e-011 7.071068e-011 7.071068e-011 7.071068e-011
9142000 0.95099902 -0.15345776 0.0001103918 3.6358939e-005 7.071068e-011 7.071068e-011 7.071068e-011 7.071068e-011
9260000 0.95111173 -0.15517314 -0.00011510085 1.7950273e-005 7.071068e-011 7.071068e-011 7.071068e-011 7.071068e-011
9378000 0.95077223 -0.15624525 9.548229e-005 0.00019873641 7.071068e-011 7.071068e-011 7.071068e-011 7.071068e-011
9496000 0.95074958 -0.15730868 0.00014197582 6.0231341e-005 7.071068e-011 7.071068e-011 7.071068e-011 7.071068e-011
9614000 0.95070463 -0.15829605 0.00020928163 -8.9691865e-005 7.071068e-011 7.071068e-011 7.071068e-011 7.071068e-011
9732000 0.95090514 -0.15902738 5.0185761e-005 0.00013181061 7.071068e-011 7.071068e-011 7.071068e-011 7.071068e-011
9850000 0.95091009 -0.15957285 6.0457507e-005 -7.081357e-005 7.071068e-011 7.071068e-011 7.071068e-011 7.071068e-011
9968000 0.95146954 -0.15987407 0.00025285815 -0.000159876 7.071068e-011 7.071068e-011 7.071068e-011 7.071068e-011
10086000 0.94340676 -0.15913674 -0.00061962573 -8.9955174e-006 7.071068e-011 7.071068e-011 7.071068e-011 7.071068e-011
10204000 0.94211578 -0.16114233 5.9135011e-005 2.7538072e-005 7.071068e-011 7.071068e-011 7.071068e-011 7.071068e-011
10322000 0.94396049 -0.16365667 0.00029781784 -0.00028659607 7.071068e-011 7.071068e-011 7.071068e-011 7.071068e-011
10440000 0.94325089 -0.16500066 0.00045737854 -2.9698487e-005 7.071068e-011 7.071068e-011 7.071068e-011 7.071068e-011
10558000 0.94310904 -0.16598499 0.00032099188 0.00060730457 7.071068e-011 7.071068e-011 7.071068e-011 7.071068e-011
10676000 0.94274318 -0.16903371 -0.00030538175 5.8327132e-005 7.071068e-011 7.071068e-011 7.071068e-011 7.071068e-011
10794000 0.94169027 -0.17003651 -0.0002051734 0.00018427202 7.071068e-011 7.071068e-011 7.071068e-011 7.071068e-011
10912000 0.94190288 -0.17107628 0.00019675386 0.00033092129 7.071068e-011 7.071068e-011 7.071068e-011 7.071068e-011
11030000 0.94276923 -0.17433111 -0.00033973565 -0.0002332687 7.071068e-011 7.071068e-011 7.071068e-011 7.071068e-011
11148000 0.94132549 -0.17404294 0.00020457698 4.2954849e-005 7.071068e-011 7.071068e-011 7.071068e-011 7.071068e-011
11266000 0.9422611 -0.17542617 -0.00016645934 0.00023906611 7.071068e-011 7.071068e-011 7.071068e-011 7.071068e-011
11384000 0.94080007 -0.17826258 7.2070354e-005 -0.0005818358 7.071068e-011 7.071068e-011 7.071068e-011 7.071068e-011
11502000 0.9398821 -0.17828386 0.00052835239 2.7608903e-005 7.071068e-011 7.071068e-011 7.071068e-011 7.071068e-011
11620000 0.94056886 -0.18063143 -0.00018298058 0.00040978298 7.071068e-011 7.071068e-011 7.071068e-011 7.071068e-011
11738000 0.93964398 -0.18360691 0.00060696789 0.00028890456 7.071068e-011 7.071068e-011 7.071068e-011 7.071068e-011
11856000 0.94048631 -0.18465547 -0.00025213897 9.7039177e-005 7.071068e-011 7.071068e-011 7.071068e-011 7.071068e-011
11974000 0.93943715 -0.18594298 -3.1168744e-005 -9.3083501e-005 7.071068e-011 7.071068e-011 7.071068e-011 7.071068e-011
12092000 0.93916279 -0.18791392 0.00011223092 0.00026702959 7.071068e-011 7.071068e-011 7.071068e-011 7.071068e-011
12210000 0.93845928 -0.18960533 7.696668e-005 -4.0440656e-005 7.071068e-011 7.071068e-011 7.071068e-011 7.071068e-011
12328000 0.93884993 -0.19191056 0.00020471233 7.7026285e-005 7.071068e-011 7.071068e-011 7.071068e-011 7.071068e-011
12446000 0.93734324 -0.19201724 -0.00033758834 0.00011097198 7.071068e-011 7.071068e-011 7.071068e-011 7.071068e-011
12564000 0.93805063 -0.19552448 -0.00018043403 -0.00023299704 7.071068e-011 7.071068e-011 7.071068e-011 7.071068e-011
12682000 0.93665433 -0.19696942 -5.780119e-005 -0.00043668612 7.071068e-011 7.071068e-011 7.071068e-011 7.071068e-011
12800000 0.93754667 -0.19775259 3.7591213e-005 0.00031027422 7.071068e-011 7.071068e-011 7.071068e-011 7.071068e-011
12918000 0.93785864 -0.19979 0.00019332534 -9.4875504e-005 7.071068e-011 7.071068e-011 7.071068e-011 7.071068e-011
13036000 0.93606418 -0.20094717 0.00066459394 0.00013638395 7.071068e-011 7.071068e-011 7.071068e-011 7.071068e-011
13154000 0.93678755 -0.20209002 -3.8495418e-005 5.0666156e-005 7.071068e-011 7.071068e-011 7.071068e-011 7.071068e-011
13272000 0.93611866 -0.20440508 -0.00010525389 -0.0005490504 7.071068e-011 7.071068e-011 7.071068e-011 7.071068e-011
13390000 0.93528521 -0.20597503 -0.00057169108 0.00022732696 7.071068e-011 7.071068e-011 7.071068e-011 7.071068e-011
13508000 0.93461025 -0.20796138 0.00015473748 -0.0004384894 7.071068e-011 7.071068e-011 7.071068e-011 7.071068e-011
13626000 0.93490118 -0.20932883 0.00017785182 -0.00029445585 7.071068e-011 7.071068e-011 7.071068e-011 7.071068e-011
13744000 0.93605793 -0.21172664 0.00015116352 7.042317e-007 7.071068e-011 7.071068e-011 7.071068e-011 7.071068e-011
13862000 0.9343943 -0.21344855 -0.00014126545 0.00017717989 7.071068e-011 7.071068e-011 7.071068e-011 7.071068e-011
13980000 0.93403214 -0.21469101 -0.00020238523 0.0002586905 7.071068e-011 7.071068e-011 7.071068e-011 7.071068e-011
14098000 0.93332893 -0.21513617 1.6743037e-005 -0.0003567306 7.071068e-011 7.071068e-011 7.071068e-011 7.071068e-011
14216000 0.93335646 -0.21753472 9.8436169e-005 -0.00011547064 7.071068e-011 7.071068e-011 7.071068e-011 7.071068e-011
14334000 0.93328249 -0.21965288 -6.6364744e-005 -0.00017927888 7.071068e-011 7.071068e-011 7.071068e-011 7.071068e-011
14452000 0.93265605 -0.21998888 -0.00021794997 -0.00040309338 7.071068e-011 7.071068e-011 7.071068e-011 7.071068e-011
14570000 0.93210924 -0.22260474 0.00021551816 -9.6756667e-006 7.071068e-011 7.071068e-011 7.071068e-011 7.071068e-011
14688000 0.93177706 -0.22445361 0.00012470565 0.00022147127 7.071068e-011 7.071068e-011 7.071068e-011 7.071068e-011
14806000 0.93099934 -0.22537416 0.00014902394 -5.818432e-005 7.071068e-011 7.071068e-011 7.071068e-011 7.071068e-011
14924000 0.93099046 -0.22654791 -0.00019525269 -0.00029909809 7.071068e-011 7.071068e-011 7.071068e-011 7.071068e-011
15042000 0.93026853 -0.22913715 -0.00040593932 0.00029229658 7.071068e-011 7.071068e-011 7.071068e-011 7.071068e-011
15160000 0.93038678 -0.23030216 0.00022882658 0.00010561186 7.071068e-011 7.071068e-011 7.071068e-011 7.071068e-011
15278000 0.93021655 -0.23155949 -0.00026273853 -0.00024435497 7.071068e-011 7.071068e-011 7.071068e-011 7.071068e-011
15396000 0.9289481 -0.23392706 0.00031669822 -0.00035986598 7.071068e-011 7.071068e-011 7.071068e-011 7.071068e-011
15514000 0.92874032 -0.23619732 -0.00024204233 0.00038215698 7.071068e-011 7.071068e-011 7.071068e-011 7.071068e-011
15632000 0.9285782 -0.23714693 -0.00025139927 -6.1673345e-005 7.071068e-011 7.071068e-011 7.071068e-011 7.071068e-011
15750000 0.92793781 -0.23990412 -0.00045236835 -1.9736057e-005 7.071068e-011 7.071068e-011 7.071068e-011 7.071068e-011
15868000 0.92768407 -0.23992839 -0.00049719814 1.2681378e-005 7.071068e-011 7.071068e-011 7.071068e-011 7.071068e-011
15986000 0.92747384 -0.24243881 0.00032718113 -7.0542468e-005 7.071068e-011 7.071068e-011 7.071068e-011 7.071068e-011
16104000 0.92779845 -0.24345709 0.00036714322 9.8674071e-005 7.071068e-011 7.071068e-011 7.071068e-011 7.071068e-011
16222000 0.92636812 -0.2454159 7.3842981e-005 4.8160051e-005 7.071068e-011 7.071068e-011 7.071068e-011 7.071068e-011
16340000 0.92597723 -0.24682455 -0.0002054123 0.00016322885 7.071068e-011 7.071068e-011 7.071068e-011 7.071068e-011
16458000 0.92521924 -0.24839608 9.5823743e-006 7.3116471e-006 7.071068e-011 7.071068e-011 7.071068e-011 7.071068e-011
16576000 0.9249956 -0.25033599 0.00023130933 -0.00014814606 7.071068e-011 7.071068e-011 7.071068e-011 7.071068e-011
16694000 0.92512953 -0.25211075 -0.00039798251 1.6205751e-006 7.071068e-011 7.071068e-011 7.071068e-011 7.071068e-011
16812000 0.92524356 -0.25324321 3.4365758e-006 0.00044591137 7.071068e-011 7.071068e-011 7.071068e-011 7.071068e-011
16930000 0.92386478 -0.25419402 0.0001630413 0.00036517304 7.071068e-011 7.071068e-011 7.071068e-011 7.071068e-011
17048000 0.92349482 -0.25644919 7.571328e-005 0.00032734315 7.071068e-011 7.071068e-011 7.071068e-011 7.071068e-011
17166000 0.9234814 -0.25802845 0.00018878582 5.9918642e-005 7.071068e-011 7.071068e-011 7.071068e-011 7.071068e-011
17284000 0.92261654 -0.25953352 0.00019149548 1.4142539e-005 7.071068e-011 7.071068e-011 7.071068e-011 7.071068e-011
17402000 0.92247283 -0.26155624 0.00025630571 0.00014548247 7.071068e-011 7.071068e-011 7.071068e-011 7.071068e-011
17520000 0.92177725 -0.26265672 4.6527457e-005 0.00010818699 7.071068e-011 7.071068e-011 7.071068e-011 7.071068e-011
17638000 0.92082751 -0.26454845 -0.00022508366 -0.00032508391 7.071068e-011 7.071068e-011 7.071068e-011 7.071068e-011
17756000 0.92047787 -0.26636457 -0.00041543611 -0.00011798007 7.071068e-011 7.071068e-011 7.071068e-011 7.071068e-011
17874000 0.92061204 -0.26775348 0.00010687954 -0.0003087974 7.071068e-011 7.071068e-011 7.071068e-011 7.071068e-011
17992000 0.91945177 -0.26991385 9.6939526e-005 -0.00023962965 7.071068e-011 7.071068e-011 7.071068e-011 7.071068e-011
18110000 0.91997147 -0.27066153 0.00013437687 -0.00086225336 7.071068e-011 7.071068e-011 7.071068e-011 7.071068e-011
18228000 0.91966254 -0.27305791 0.00020051419 -0.00015152252 7.071068e-011 7.071068e-011 7.071068e-011 7.071068e-011
18346000 0.9197709 -0.2735942 -2.6703943e-005 0.00032150492 7.071068e-011 7.071068e-011 7.071068e-011 7.071068e-011
18464000 0.91792434 -0.27515492 -0.00021742148 9.23275e-006 7.071068e-011 7.071068e-011 7.071068e-011 7.071068e-011
18582000 0.91760486 -0.27721125 0.00017805313 -0.00016225578 7.071068e-011 7.071068e-011 7.071068e-011 7.071068e-011
18700000 0.91734272 -0.27811271 -0.00040624678 -0.00017654506 7.071068e-011 7.071068e-011 7.071068e-011 7.071068e-011
18818000 0.91639775 -0.28090453 3.5645187e-006 3.3756066e-006 7.071068e-011 7.071068e-011 7.071068e-011 7.071068e-011
18936000 0.91655183 -0.28249496 0.00027111205 0.00018398353 7.071068e-011 7.071068e-011 7.071068e-011 7.071068e-011
19054000 0.91558862 -0.28413549 0.00022944213 -0.00022355786 7.071068e-011 7.071068e-011 7.071068e-011 7.071068e-011
19172000 0.9154737 -0.28535438 5.1426719e-005 -0.00021119123 7.071068e-011 7.071068e-011 7.071068e-011 7.071068e-011
19290000 0.91561627 -0.28671178 -0.00016108128 -1.8820849e-006 7.071068e-011 7.071068e-011 7.071068e-011 7.071068e-011
19408000 0.91395366 -0.28842145 0.00052678643 7.9767378e-005 7.071068e-011 7.071068e-011 7.071068e-011 7.071068e-011
19526000 0.91404182 -0.29027447 -0.00013036196 -0.00039687648 7.071068e-011 7.071068e-011 7.071068e-011 7.071068e-011
19644000 0.91400033 -0.29161197 -8.0372401e-006 -0.00028711703 7.071068e-011 7.071068e-011 7.071068e-011 7.071068e-011
19762000 0.91319573 -0.29376665 -0.00022210521 3.9648119e-005 7.071068e-011 7.071068e-011 7.071068e-011 7.071068e-011
19880000 0.91267663 -0.2952055 -0.0001441747 -0.00013229993 7.071068e-011 7.071068e-011 7.071068e-011 7.071068e-011
19998000 0.9114871 -0.29716375 9.5827047e-005 0.00037097381 7.071068e-011 7.071068e-011 7.071068e-011 7.071068e-011
20116000 0.91149318 -0.29794142 0.00014888903 -0.00024587801 7.071068e-011 7.071068e-011 7.071068e-011 7.071068e-011
20234000 0.91061932 -0.29954243 -7.3050724e-006 0.00038031681 7.071068e-011 7.071068e-011 7.071068e-011 7.071068e-011
20352000 0.91096061 -0.30115983 1.3707309e-005 -5.4423788e-005 7.071068e-011 7.071068e-011 7.071068e-011 7.071068e-011
20470000 0.91077638 -0.30349198 5.4311091e-005 0.00011618422 7.071068e-011 7.071068e-011 7.071068e-011 7.071068e-011
20588000 0.90968066 -0.30485648 -0.00063609151 7.9519341e-005 7.071068e-011 7.071068e-011 7.071068e-011 7.071068e-011
20706000 0.90881401 -0.3064118 0.0001350559 0.00037469936 7.071068e-011 7.071068e-011 7.071068e-011 7.071068e-011
