!Keysight Technologies,P9371A,MY57213205,A.13.10.05
!Date: Wednesday, April 16, 2025 09:59:58
!Correction: S11(Off) 
!S21(Off) 
!S12(Off) 
!S22(Off) 
!S2P File: Measurements: S11, S21, S12, S22:
# Hz S  RI   R 50
1000000 -1.013037 -0.13130429 -5.1078037e-005 -3.3509881e-005 7.071068e-011 7.071068e-011 7.071068e-011 7.071068e-011
1118000 -1.0146576 -0.10878112 6.2596591e-005 6.802506e-005 7.071068e-011 7.071068e-011 7.071068e-011 7.071068e-011
1236000 -1.0151236 -0.091561519 -7.1912749e-005 -0.00014719748 7.071068e-011 7.071068e-011 7.071068e-011 7.071068e-011
1354000 -1.0152406 -0.078947224 4.538356e-005 2.3275175e-005 7.071068e-011 7.071068e-011 7.071068e-011 7.071068e-011
1472000 -1.0148615 -0.069423556 7.2709947e-005 -1.923641e-005 7.071068e-011 7.071068e-011 7.071068e-011 7.071068e-011
1590000 -1.0146333 -0.059673797 -0.0001142991 -7.9673373e-005 7.071068e-011 7.071068e-011 7.071068e-011 7.071068e-011
1708000 -1.0148258 -0.051136486 6.0788603e-005 -4.9612965e-005 7.071068e-011 7.071068e-011 7.071068e-011 7.071068e-011
1826000 -1.01431 -0.044325761 2.3457545e-005 -6.8423804e-005 7.071068e-011 7.071068e-011 7.071068e-011 7.071068e-011
1944000 -1.0138314 -0.038742237 0.00012758098 -6.5542496e-005 7.071068e-011 7.071068e-011 7.071068e-011 7.071068e-011
2062000 -1.0137373 -0.032293718 -0.00011627468 -9.5867097e-007 7.071068e-011 7.071068e-011 7.071068e-011 7.071068e-011
2180000 -1.0136622 -0.024876216 -5.513491e-006 4.563934e-006 7.071068e-011 7.071068e-011 7.071068e-011 7.071068e-011
2298000 -1.0136551 -0.018103013 4.7963989e-005 -1.6331629e-005 7.071068e-011 7.071068e-011 7.071068e-011 7.071068e-011
2416000 -1.0134106 -0.012323959 -6.6859131e-005 0.00012313215 7.071068e-011 7.071068e-011 7.071068e-011 7.071068e-011
2534000 -1.0130295 -0.0073449588 5.9523129e-005 2.2920229e-005 7.071068e-011 7.071068e-011 7.071068e-011 7.071068e-011
2652000 -1.0125241 -0.0026207531 3.192867e-005 0.00014687309 7.071068e-011 7.071068e-011 7.071068e-011 7.071068e-011
2770000 -1.0124329 0.001523834 3.9873943e-005 -2.7413005e-005 7.071068e-011 7.071068e-011 7.071068e-011 7.071068e-011
2888000 -1.0122297 0.0055166148 5.4473003e-005 2.1535154e-005 7.071068e-011 7.071068e-011 7.071068e-011 7.071068e-011
3006000 -1.0118091 0.0092697637 -8.5959064e-006 4.3194319e-005 7.071068e-011 7.071068e-011 7.071068e-011 7.071068e-011
3124000 -1.0116466 0.013224562 3.3561984e-005 -2.0962787e-005 7.071068e-011 7.071068e-011 7.071068e-011 7.071068e-011
3242000 -1.011525 0.017282428 -2.6860644e-005 5.7977068e-005 7.071068e-011 7.071068e-011 7.071068e-011 7.071068e-011
3360000 -1.0110222 0.020927936 3.8621554e-005 -2.3550436e-005 7.071068e-011 7.071068e-011 7.071068e-011 7.071068e-011
3478000 -1.010813 0.024397174 3.823005e-005 -9.1066519e-005 7.071068e-011 7.071068e-011 7.071068e-011 7.071068e-011
3596000 -1.0103327 0.027500188 -6.832592e-005 9.1517017e-005 7.071068e-011 7.071068e-011 7.071068e-011 7.071068e-011
3714000 -1.0099059 0.030691734 -9.6457756e-005 2.466534e-005 7.071068e-011 7.071068e-011 7.071068e-011 7.071068e-011
3832000 -1.0094464 0.033612534 -3.5941906e-005 -8.6179774e-005 7.071068e-011 7.071068e-011 7.071068e-011 7.071068e-011
3950000 -1.0088727 0.036087256 -0.00011408716 4.7205915e-005 7.071068e-011 7.071068e-011 7.071068e-011 7.071068e-011
4068000 -1.0083599 0.038999282 3.5030258e-005 4.3487096e-005 7.071068e-011 7.071068e-011 7.071068e-011 7.071068e-011
4186000 -1.0081512 0.042075664 6.1069637e-005 5.3503623e-005 7.071068e-011 7.071068e-011 7.071068e-011 7.071068e-011
4304000 -1.0076623 0.044945765 2.5296125e-005 0.000106582 7.071068e-011 7.071068e-011 7.071068e-011 7.071068e-011
4422000 -1.0076419 0.048032537 4.4851651e-005 -5.5390981e-005 7.071068e-011 7.071068e-011 7.071068e-011 7.071068e-011
4540000 -1.0067928 0.050769929 6.0215028e-005 4.8288439e-005 7.071068e-011 7.071068e-011 7.071068e-011 7.071068e-011
4658000 -1.0062659 0.053389352 2.0823989e-005 0.0001285116 7.071068e-011 7.071068e-011 7.071068e-011 7.071068e-011
4776000 -1.0056775 0.055679958 1.2083672e-005 -2.7350754e-006 7.071068e-011 7.071068e-011 7.071068e-011 7.071068e-011
4894000 -1.0054367 0.058096007 -1.8317367e-005 -5.1271363e-005 7.071068e-011 7.071068e-011 7.071068e-011 7.071068e-011
5012000 -1.0049436 0.06054822 2.6199401e-005 -5.5096636e-005 7.071068e-011 7.071068e-011 7.071068e-011 7.071068e-011
5130000 -1.0044391 0.062948994 -2.9955256e-005 5.3726963e-005 7.071068e-011 7.071068e-011 7.071068e-011 7.071068e-011
5248000 -1.0040507 0.065359704 -1.5310387e-005 2.8917964e-005 7.071068e-011 7.071068e-011 7.071068e-011 7.071068e-011
5366000 -1.0036458 0.067718409 3.6859994e-005 -2.2722606e-005 7.071068e-011 7.071068e-011 7.071068e-011 7.071068e-011
5484000 -1.0028034 0.069985114 -9.2474002e-006 4.7759735e-005 7.071068e-011 7.071068e-011 7.071068e-011 7.071068e-011
5602000 -1.0022748 0.072129041 -7.221321e-005 8.2507137e-007 7.071068e-011 7.071068e-011 7.071068e-011 7.071068e-011
5720000 -1.0017575 0.073901065 2.894006e-005 -6.2043895e-005 7.071068e-011 7.071068e-011 7.071068e-011 7.071068e-011
5838000 -1.0013287 0.076034732 7.7738026e-005 -0.00011293682 7.071068e-011 7.071068e-011 7.071068e-011 7.071068e-011
5956000 -1.0009567 0.077943198 4.9684982e-006 2.3330398e-005 7.071068e-011 7.071068e-011 7.071068e-011 7.071068e-011
6074000 -1.0007244 0.080146864 -7.2974537e-005 -3.1604071e-005 7.071068e-011 7.071068e-011 7.071068e-011 7.071068e-011
6192000 -1.0004796 0.082216963 3.4485827e-005 -1.7487793e-005 7.071068e-011 7.071068e-011 7.071068e-011 7.071068e-011
6310000 -1.0002325 0.084199093 -0.00011331802 -0.0001239328 7.071068e-011 7.071068e-011 7.071068e-011 7.071068e-011
6428000 -0.99996728 0.086370155 -1.833506e-005 -2.4388122e-005 7.071068e-011 7.071068e-011 7.071068e-011 7.071068e-011
6546000 -0.9995389 0.088339426 2.076601e-005 3.1030635e-005 7.071068e-011 7.071068e-011 7.071068e-011 7.071068e-011
6664000 -0.99899578 0.090485968 -5.2497482e-005 -9.6127551e-005 7.071068e-011 7.071068e-011 7.071068e-011 7.071068e-011
6782000 -0.99883199 0.092453137 -6.4556974e-005 -2.292737e-005 7.071068e-011 7.071068e-011 7.071068e-011 7.071068e-011
6900000 -0.9983868 0.094050899 -3.3356333e-005 -5.4036936e-006 7.071068e-011 7.071068e-011 7.071068e-011 7.071068e-011
7018000 -0.99829221 0.096436933 -0.00011815148 -7.5986762e-005 7.071068e-011 7.071068e-011 7.071068e-011 7.071068e-011
7136000 -0.99854755 0.099506304 -4.3559117e-005 -6.6956932e-006 7.071068e-011 7.071068e-011 7.071068e-011 7.071068e-011
7254000 -0.99862218 0.10231671 2.4159563e-005 5.6441986e-005 7.071068e-011 7.071068e-011 7.071068e-011 7.071068e-011
7372000 -0.99866277 0.10510022 4.7313006e-005 -0.00015320884 7.071068e-011 7.071068e-011 7.071068e-011 7.071068e-011
7490000 -0.99835062 0.10762871 2.8332646e-005 4.8033808e-006 7.071068e-011 7.071068e-011 7.071068e-011 7.071068e-011
7608000 -0.99839598 0.11060708 -8.5901956e-005 8.6528671e-005 7.071068e-011 7.071068e-011 7.071068e-011 7.071068e-011
7726000 -0.99787617 0.11307143 1.6826722e-005 7.43747e-005 7.071068e-011 7.071068e-011 7.071068e-011 7.071068e-011
7844000 -0.99697495 0.11575816 1.4374335e-005 3.9867871e-005 7.071068e-011 7.071068e-011 7.071068e-011 7.071068e-011
7962000 -0.99611622 0.11845177 -2.3576378e-005 -0.00011770597 7.071068e-011 7.071068e-011 7.071068e-011 7.071068e-011
8080000 -0.9958604 0.122106 -5.3209893e-005 5.3791777e-005 7.071068e-011 7.071068e-011 7.071068e-011 7.071068e-011
8198000 -0.9957847 0.12599845 4.6018835e-005 -3.0865707e-005 7.071068e-011 7.071068e-011 7.071068e-011 7.071068e-011
8316000 -0.99586624 0.12957945 -0.00011054552 6.3180933e-006 7.071068e-011 7.071068e-011 7.071068e-011 7.071068e-011
8434000 -0.9950816 0.13274741 7.6694472e-005 -3.6263435e-005 7.071068e-011 7.071068e-011 7.071068e-011 7.071068e-011
8552000 -0.99428898 0.13625461 7.4666241e-005 -1.1218273e-005 7.071068e-011 7.071068e-011 7.071068e-011 7.071068e-011
8670000 -0.99308914 0.13869762 -5.1465442e-005 1.5826702e-006 7.071068e-011 7.071068e-011 7.071068e-011 7.071068e-011
8788000 -0.99248308 0.14135259 8.390013e-007 5.239711e-005 7.071068e-011 7.071068e-011 7.071068e-011 7.071068e-011
8906000 -0.99132353 0.14358087 -2.1428807e-005 -5.3707725e-005 7.071068e-011 7.071068e-011 7.071068e-011 7.071068e-011
9024000 -0.99022156 0.14559262 -3.1883723e-005 -5.0255261e-005 7.071068e-011 7.071068e-011 7.071068e-011 7.071068e-011
9142000 -0.98999119 0.1480559 0.00010364818 4.2705076e-005 7.071068e-011 7.071068e-011 7.071068e-011 7.071068e-011
9260000 -0.98955631 0.14990427 -1.7084953e-005 -2.1520744e-005 7.071068e-011 7.071068e-011 7.071068e-011 7.071068e-011
9378000 -0.98911977 0.15178922 4.5448411e-005 -5.1628263e-005 7.071068e-011 7.071068e-011 7.071068e-011 7.071068e-011
9496000 -0.98900336 0.15363318 1.114375e-005 9.1672235e-005 7.071068e-011 7.071068e-011 7.071068e-011 7.071068e-011
9614000 -0.98863053 0.15526092 4.9312243e-006 0.00011350404 7.071068e-011 7.071068e-011 7.071068e-011 7.071068e-011
9732000 -0.98932588 0.15597762 -0.00026642275 -0.00015683641 7.071068e-011 7.071068e-011 7.071068e-011 7.071068e-011
9850000 -0.98875946 0.15697326 0.00011880089 -9.7431286e-005 7.071068e-011 7.071068e-011 7.071068e-011 7.071068e-011
9968000 -0.98897499 0.15800475 9.360056e-005 2.4718209e-005 7.071068e-011 7.071068e-011 7.071068e-011 7.071068e-011
10086000 -0.9817422 0.15899208 -0.00038435718 -0.0002271619 7.071068e-011 7.071068e-011 7.071068e-011 7.071068e-011
10204000 -0.9836446 0.16134053 -0.00033879874 -0.00013400915 7.071068e-011 7.071068e-011 7.071068e-011 7.071068e-011
10322000 -0.98128903 0.16266792 -5.3366985e-005 5.4240201e-005 7.071068e-011 7.071068e-011 7.071068e-011 7.071068e-011
10440000 -0.98002326 0.16550396 5.8834961e-005 0.00036423455 7.071068e-011 7.071068e-011 7.071068e-011 7.071068e-011
10558000 -0.97918606 0.16741657 -0.00019671758 0.00038905826 7.071068e-011 7.071068e-011 7.071068e-011 7.071068e-011
10676000 -0.98008221 0.16954355 0.00037551625 0.00025924612 7.071068e-011 7.071068e-011 7.071068e-011 7.071068e-011
10794000 -0.97933751 0.1720764 0.00033593396 -0.0002522328 7.071068e-011 7.071068e-011 7.071068e-011 7.071068e-011
10912000 -0.97898674 0.17375664 -0.00010707974 -2.1635828e-005 7.071068e-011 7.071068e-011 7.071068e-011 7.071068e-011
11030000 -0.97841543 0.17619315 -0.00031685966 4.2781421e-006 7.071068e-011 7.071068e-011 7.071068e-011 7.071068e-011
11148000 -0.9769882 0.17804292 0.00023610416 -9.9507943e-006 7.071068e-011 7.071068e-011 7.071068e-011 7.071068e-011
11266000 -0.97725946 0.18109949 0.00021214642 0.00019612543 7.071068e-011 7.071068e-011 7.071068e-011 7.071068e-011
11384000 -0.97584414 0.18211959 -0.00040500378 -0.00025113637 7.071068e-011 7.071068e-011 7.071068e-011 7.071068e-011
11502000 -0.97698534 0.1841477 -0.00013270113 0.00037592222 7.071068e-011 7.071068e-011 7.071068e-011 7.071068e-011
11620000 -0.97579837 0.18664862 -0.00035748497 -0.00031991256 7.071068e-011 7.071068e-011 7.071068e-011 7.071068e-011
11738000 -0.97621763 0.1890046 0.00021110791 0.00019443461 7.071068e-011 7.071068e-011 7.071068e-011 7.071068e-011
11856000 -0.97581667 0.18999892 -0.0003461036 -0.00011331679 7.071068e-011 7.071068e-011 7.071068e-011 7.071068e-011
11974000 -0.97412241 0.19303308 -5.4315697e-006 -0.00024631893 7.071068e-011 7.071068e-011 7.071068e-011 7.071068e-011
12092000 -0.9744941 0.19502033 -0.00036100048 -7.7165714e-005 7.071068e-011 7.071068e-011 7.071068e-011 7.071068e-011
12210000 -0.97299618 0.19705172 -0.00011549299 -0.00010579467 7.071068e-011 7.071068e-011 7.071068e-011 7.071068e-011
12328000 -0.97381508 0.19857192 -3.5206565e-005 8.1665377e-005 7.071068e-011 7.071068e-011 7.071068e-011 7.071068e-011
12446000 -0.97277999 0.20128357 -7.8248624e-005 1.6861062e-005 7.071068e-011 7.071068e-011 7.071068e-011 7.071068e-011
12564000 -0.97110915 0.20323847 6.6571847e-005 1.5531738e-005 7.071068e-011 7.071068e-011 7.071068e-011 7.071068e-011
12682000 -0.9717378 0.20531854 0.00040707775 0.00026103738 7.071068e-011 7.071068e-011 7.071068e-011 7.071068e-011
12800000 -0.97167826 0.20724612 0.00044319368 0.00028389948 7.071068e-011 7.071068e-011 7.071068e-011 7.071068e-011
12918000 -0.9702996 0.20874327 0.00033444326 7.9073368e-005 7.071068e-011 7.071068e-011 7.071068e-011 7.071068e-011
13036000 -0.97116399 0.21027273 5.377776e-005 -0.00011543386 7.071068e-011 7.071068e-011 7.071068e-011 7.071068e-011
13154000 -0.96973169 0.21307462 0.00011825655 -5.7401809e-005 7.071068e-011 7.071068e-011 7.071068e-011 7.071068e-011
13272000 -0.96881896 0.21574014 -0.00044854212 0.00024250704 7.071068e-011 7.071068e-011 7.071068e-011 7.071068e-011
13390000 -0.96836579 0.21757522 0.00012114143 4.9566439e-005 7.071068e-011 7.071068e-011 7.071068e-011 7.071068e-011
13508000 -0.96759093 0.21947053 -0.00020071527 -6.0925584e-005 7.071068e-011 7.071068e-011 7.071068e-011 7.071068e-011
13626000 -0.9679482 0.22214869 -0.00020876486 0.00025807368 7.071068e-011 7.071068e-011 7.071068e-011 7.071068e-011
13744000 -0.9661361 0.22384065 8.1069047e-005 5.5234406e-005 7.071068e-011 7.071068e-011 7.071068e-011 7.071068e-011
13862000 -0.9667924 0.22661853 -0.00014051876 -4.3252388e-005 7.071068e-011 7.071068e-011 7.071068e-011 7.071068e-011
13980000 -0.96598786 0.22788592 -8.7342763e-005 0.00037443664 7.071068e-011 7.071068e-011 7.071068e-011 7.071068e-011
14098000 -0.96590406 0.22939233 0.00013308898 -0.00019361639 7.071068e-011 7.071068e-011 7.071068e-011 7.071068e-011
14216000 -0.96567214 0.23147333 -2.4395942e-005 -0.0001168115 7.071068e-011 7.071068e-011 7.071068e-011 7.071068e-011
14334000 -0.96424669 0.23310483 -5.7587677e-006 -5.2913158e-005 7.071068e-011 7.071068e-011 7.071068e-011 7.071068e-011
14452000 -0.9634338 0.23600785 0.00064361701 0.00016214456 7.071068e-011 7.071068e-011 7.071068e-011 7.071068e-011
14570000 -0.96341079 0.23740892 0.00016947418 0.00018979625 7.071068e-011 7.071068e-011 7.071068e-011 7.071068e-011
14688000 -0.96285254 0.23972784 -5.6095552e-005 5.6499044e-005 7.071068e-011 7.071068e-011 7.071068e-011 7.071068e-011
14806000 -0.96216148 0.24135497 0.00017871008 -0.00011106476 7.071068e-011 7.071068e-011 7.071068e-011 7.071068e-011
14924000 -0.96139413 0.24302079 0.00017655094 -0.00041833724 7.071068e-011 7.071068e-011 7.071068e-011 7.071068e-011
15042000 -0.9614954 0.24462406 0.00040014219 -0.00011202077 7.071068e-011 7.071068e-011 7.071068e-011 7.071068e-011
15160000 -0.96064204 0.24713536 -0.0001888054 -0.00012785538 7.071068e-011 7.071068e-011 7.071068e-011 7.071068e-011
15278000 -0.95986688 0.24828359 0.00017312319 -0.00016335286 7.071068e-011 7.071068e-011 7.071068e-011 7.071068e-011
15396000 -0.95882827 0.2513684 -0.00012243234 -0.00047804229 7.071068e-011 7.071068e-011 7.071068e-011 7.071068e-011
15514000 -0.9582448 0.25291157 0.00019045142 -0.0002796425 7.071068e-011 7.071068e-011 7.071068e-011 7.071068e-011
15632000 -0.95807397 0.25523663 8.6226508e-005 0.00018711061 7.071068e-011 7.071068e-011 7.071068e-011 7.071068e-011
15750000 -0.95713949 0.25701374 -0.0003957263 -0.00011000641 7.071068e-011 7.071068e-011 7.071068e-011 7.071068e-011
15868000 -0.95649278 0.2592546 4.5436558e-005 -0.00034269411 7.071068e-011 7.071068e-011 7.071068e-011 7.071068e-011
15986000 -0.95584011 0.26095083 1.8719078e-005 -0.00012060174 7.071068e-011 7.071068e-011 7.071068e-011 7.071068e-011
16104000 -0.9553706 0.26272574 -7.1273025e-005 0.00015765916 7.071068e-011 7.071068e-011 7.071068e-011 7.071068e-011
16222000 -0.95434225 0.26500314 2.1766502e-005 5.2131207e-005 7.071068e-011 7.071068e-011 7.071068e-011 7.071068e-011
16340000 -0.9556483 0.26690599 -0.00041322375 -0.00016375576 7.071068e-011 7.071068e-011 7.071068e-011 7.071068e-011
16458000 -0.95466214 0.26908699 -0.00022435766 -0.00014235415 7.071068e-011 7.071068e-011 7.071068e-011 7.071068e-011
16576000 -0.95336521 0.27033705 0.00014322197 0.00035639774 7.071068e-011 7.071068e-011 7.071068e-011 7.071068e-011
16694000 -0.95258605 0.272737 0.00017140462 -0.00045415023 7.071068e-011 7.071068e-011 7.071068e-011 7.071068e-011
16812000 -0.95121855 0.27467939 0.00056144851 0.00024266068 7.071068e-011 7.071068e-011 7.071068e-011 7.071068e-011
16930000 -0.95141935 0.27633047 0.00014503946 -0.00010725855 7.071068e-011 7.071068e-011 7.071068e-011 7.071068e-011
17048000 -0.94967026 0.27809876 -0.0001701749 0.00011480521 7.071068e-011 7.071068e-011 7.071068e-011 7.071068e-011
17166000 -0.95012921 0.2806758 -9.6646909e-005 -0.0001359703 7.071068e-011 7.071068e-011 7.071068e-011 7.071068e-011
17284000 -0.94939202 0.28267029 0.00043092298 -0.00014029165 7.071068e-011 7.071068e-011 7.071068e-011 7.071068e-011
17402000 -0.9488833 0.28432551 -0.00058852776 9.6174372e-005 7.071068e-011 7.071068e-011 7.071068e-011 7.071068e-011
17520000 -0.94802654 0.2856769 6.3791551e-005 -1.224395e-005 7.071068e-011 7.071068e-011 7.071068e-011 7.071068e-011
17638000 -0.9477312 0.28740832 -0.00010852161 -0.00021355618 7.071068e-011 7.071068e-011 7.071068e-011 7.071068e-011
17756000 -0.94768506 0.29035118 0.00024561875 0.0003901186 7.071068e-011 7.071068e-011 7.071068e-011 7.071068e-011
17874000 -0.94644582 0.29097998 -0.0002534161 -0.00030989049 7.071068e-011 7.071068e-011 7.071068e-011 7.071068e-011
17992000 -0.94528997 0.29342252 0.00022735997 -3.1854313e-005 7.071068e-011 7.071068e-011 7.071068e-011 7.071068e-011
18110000 -0.9449532 0.29455873 0.00034826406 -0.00024256308 7.071068e-011 7.071068e-011 7.071068e-011 7.071068e-011
18228000 -0.94448608 0.29718181 -0.00025152435 0.00033442338 7.071068e-011 7.071068e-011 7.071068e-011 7.071068e-011
18346000 -0.94358116 0.29867172 2.1904796e-005 0.00020677107 7.071068e-011 7.071068e-011 7.071068e-011 7.071068e-011
18464000 -0.94255757 0.30084726 -0.00039271545 0.00017875484 7.071068e-011 7.071068e-011 7.071068e-011 7.071068e-011
18582000 -0.94193119 0.3023442 -5.7634265e-005 0.00011024416 7.071068e-011 7.071068e-011 7.071068e-011 7.071068e-011
18700000 -0.94192803 0.30508688 -6.7407156e-005 4.6668047e-005 7.071068e-011 7.071068e-011 7.071068e-011 7.071068e-011
18818000 -0.94127506 0.30743715 -0.00049932336 1.8457578e-005 7.071068e-011 7.071068e-011 7.071068e-011 7.071068e-011
18936000 -0.940804 0.30855775 0.00011689054 7.5940161e-006 7.071068e-011 7.071068e-011 7.071068e-011 7.071068e-011
19054000 -0.9393304 0.30921647 -0.00010020191 -4.6097946e-005 7.071068e-011 7.071068e-011 7.071068e-011 7.071068e-011
19172000 -0.93944252 0.31181076 0.00016285288 0.00031658952 7.071068e-011 7.071068e-011 7.071068e-011 7.071068e-011
19290000 -0.93877149 0.31342134 -5.6756955e-005 0.00032596124 7.071068e-011 7.071068e-011 7.071068e-011 7.071068e-011
19408000 -0.93796581 0.31551471 -1.5317715e-005 0.00024139808 7.071068e-011 7.071068e-011 7.071068e-011 7.071068e-011
19526000 -0.93650872 0.31826216 -2.8554503e-005 -0.00084335561 7.071068e-011 7.071068e-011 7.071068e-011 7.071068e-011
19644000 -0.93777561 0.31969741 -0.00029170848 0.00020373729 7.071068e-011 7.071068e-011 7.071068e-011 7.071068e-011
19762000 -0.93555808 0.32072574 0.00017016438 -9.2752074e-005 7.071068e-011 7.071068e-011 7.071068e-011 7.071068e-011
19880000 -0.93518722 0.32243463 -8.45385e-005 0.00019374229 7.071068e-011 7.071068e-011 7.071068e-011 7.071068e-011
19998000 -0.93458217 0.3252039 -0.00017768907 0.00011658861 7.071068e-011 7.071068e-011 7.071068e-011 7.071068e-011
20116000 -0.93345845 0.32644045 0.0001659085 6.2994644e-005 7.071068e-011 7.071068e-011 7.071068e-011 7.071068e-011
20234000 -0.93350369 0.32900572 2.6292295e-005 4.616112e-005 7.071068e-011 7.071068e-011 7.071068e-011 7.071068e-011
20352000 -0.93180531 0.33030283 -0.00019584107 -0.00033244991 7.071068e-011 7.071068e-011 7.071068e-011 7.071068e-011
20470000 -0.93220693 0.33169764 0.00037373311 -0.00013965309 7.071068e-011 7.071068e-011 7.071068e-011 7.071068e-011
20588000 -0.93066394 0.33355713 0.00021599572 1.9160438e-005 7.071068e-011 7.071068e-011 7.071068e-011 7.071068e-011
20706000 -0.92990202 0.33540335 -0.00024644192 -8.866092e-005 7.071068e-011 7.071068e-011 7.071068e-011 7.071068e-011
