!Keysight Technologies,P9371A,MY57213205,A.13.10.05
!Date: Wednesday, April 16, 2025 10:03:03
!Correction: S11(Off) 
!S21(Off) 
!S12(Off) 
!S22(Off) 
!S2P File: Measurements: S11, S21, S12, S22:
# Hz S  dB   R 50
1000000 -17.168039 -93.958443 -0.083535261 -0.97239751 -200 45 -200 45
1118000 -18.157576 -94.846245 -0.078008443 -1.3487284 -200 45 -200 45
1236000 -19.042732 -95.496773 -0.077964686 -1.5739383 -200 45 -200 45
1354000 -19.860256 -96.020226 -0.078267016 -1.6804259 -200 45 -200 45
1472000 -20.613049 -96.451736 -0.083562195 -1.6769301 -200 45 -200 45
1590000 -21.316961 -97.032646 -0.082654022 -1.7791137 -200 45 -200 45
1708000 -21.964561 -97.544106 -0.083987758 -1.886148 -200 45 -200 45
1826000 -22.576643 -97.998749 -0.086227328 -1.9386177 -200 45 -200 45
1944000 -23.154358 -98.370071 -0.087535217 -1.9525712 -200 45 -200 45
2062000 -23.717718 -98.959892 -0.088403322 -2.0371206 -200 45 -200 45
2180000 -24.230564 -99.491104 -0.087699696 -2.2062025 -200 45 -200 45
2298000 -24.725445 -100.08826 -0.087255783 -2.358752 -200 45 -200 45
2416000 -25.220171 -100.5089 -0.088562913 -2.4996355 -200 45 -200 45
2534000 -25.684214 -101.07402 -0.090813376 -2.6003063 -200 45 -200 45
2652000 -26.118267 -101.46407 -0.089810379 -2.7008379 -200 45 -200 45
2770000 -26.529871 -102.11969 -0.09126655 -2.7830517 -200 45 -200 45
2888000 -26.966541 -102.36558 -0.092701137 -2.8500278 -200 45 -200 45
3006000 -27.334698 -102.78928 -0.09370736 -2.9177873 -200 45 -200 45
3124000 -27.746231 -103.45636 -0.093269512 -3.0499246 -200 45 -200 45
3242000 -28.12969 -103.76318 -0.093009904 -3.1521709 -200 45 -200 45
3360000 -28.490837 -104.27061 -0.09456712 -3.2457757 -200 45 -200 45
3478000 -28.853456 -104.742 -0.093471386 -3.3357012 -200 45 -200 45
3596000 -29.228645 -105.2874 -0.095237024 -3.4226959 -200 45 -200 45
3714000 -29.543251 -105.59946 -0.094199464 -3.5167503 -200 45 -200 45
3832000 -29.883163 -106.18077 -0.096178934 -3.608736 -200 45 -200 45
3950000 -30.197445 -106.5554 -0.097392879 -3.698848 -200 45 -200 45
4068000 -30.520393 -107.04598 -0.099745274 -3.7815607 -200 45 -200 45
4186000 -30.860542 -107.5856 -0.099097297 -3.8934393 -200 45 -200 45
4304000 -31.16437 -107.99832 -0.098479874 -4.0070715 -200 45 -200 45
4422000 -31.489302 -108.53123 -0.099458054 -4.1252847 -200 45 -200 45
4540000 -31.805845 -108.87427 -0.10084895 -4.2267742 -200 45 -200 45
4658000 -32.080635 -109.65417 -0.10097849 -4.3387065 -200 45 -200 45
4776000 -32.392262 -109.92847 -0.10494198 -4.4476938 -200 45 -200 45
4894000 -32.683659 -110.39536 -0.1060781 -4.5416808 -200 45 -200 45
5012000 -32.909851 -110.84889 -0.10503485 -4.6442237 -200 45 -200 45
5130000 -33.278645 -111.42157 -0.10737228 -4.756278 -200 45 -200 45
5248000 -33.526989 -111.62531 -0.10653865 -4.8680053 -200 45 -200 45
5366000 -33.786873 -112.28088 -0.10841437 -4.9787445 -200 45 -200 45
5484000 -34.085934 -112.53079 -0.11032311 -5.1033669 -200 45 -200 45
5602000 -34.390625 -113.05611 -0.1132825 -5.2030311 -200 45 -200 45
5720000 -34.637684 -113.76215 -0.11437187 -5.3035169 -200 45 -200 45
5838000 -34.972775 -114.03439 -0.11687459 -5.4099355 -200 45 -200 45
5956000 -35.189751 -114.51117 -0.11999985 -5.5031438 -200 45 -200 45
6074000 -35.499161 -115.10601 -0.12051757 -5.6055465 -200 45 -200 45
6192000 -35.729847 -115.83022 -0.12105203 -5.712512 -200 45 -200 45
6310000 -35.979832 -115.74346 -0.12327138 -5.8226428 -200 45 -200 45
6428000 -36.229183 -116.88547 -0.12478304 -5.9169364 -200 45 -200 45
6546000 -36.546825 -117.23347 -0.1270929 -6.0023484 -200 45 -200 45
6664000 -36.842739 -117.76033 -0.1271715 -6.1131196 -200 45 -200 45
6782000 -37.108749 -118.52701 -0.1310021 -6.2137599 -200 45 -200 45
6900000 -37.442486 -119.2737 -0.13542072 -6.29212 -200 45 -200 45
7018000 -37.58252 -119.39703 -0.13421319 -6.3767323 -200 45 -200 45
7136000 -37.859077 -120.52777 -0.13266562 -6.4726582 -200 45 -200 45
7254000 -38.068386 -121.16462 -0.13146065 -6.5642438 -200 45 -200 45
7372000 -38.333771 -121.93369 -0.13047291 -6.6756301 -200 45 -200 45
7490000 -38.678059 -122.61248 -0.12855797 -6.7747908 -200 45 -200 45
7608000 -38.956284 -123.10114 -0.12972026 -6.8461905 -200 45 -200 45
7726000 -39.215111 -124.28461 -0.12840867 -6.9394226 -200 45 -200 45
7844000 -39.441051 -124.6851 -0.12850448 -7.0214157 -200 45 -200 45
7962000 -39.713623 -124.61938 -0.13022035 -7.1311703 -200 45 -200 45
8080000 -40.086678 -126.367 -0.12353607 -7.2281876 -200 45 -200 45
8198000 -40.312653 -127.1777 -0.11867838 -7.3488441 -200 45 -200 45
8316000 -40.543415 -128.24094 -0.11328563 -7.4612136 -200 45 -200 45
8434000 -40.751339 -129.66936 -0.10769011 -7.5598865 -200 45 -200 45
8552000 -41.205551 -130.16478 -0.104064 -7.6766834 -200 45 -200 45
8670000 -41.278458 -130.99072 -0.10496122 -7.7912431 -200 45 -200 45
8788000 -41.734356 -130.93529 -0.10371505 -7.8949389 -200 45 -200 45
8906000 -42.004936 -132.40765 -0.10263942 -7.9899392 -200 45 -200 45
9024000 -42.234055 -135.0311 -0.10320508 -8.1018581 -200 45 -200 45
9142000 -42.714046 -135.94199 -0.1011036 -8.2263212 -200 45 -200 45
9260000 -42.782467 -135.93138 -0.10085689 -8.3277235 -200 45 -200 45
9378000 -42.930771 -136.28142 -0.10293814 -8.4384851 -200 45 -200 45
9496000 -43.264977 -137.9043 -0.10422049 -8.5584173 -200 45 -200 45
9614000 -43.702488 -139.86011 -0.10843249 -8.6448832 -200 45 -200 45
9732000 -44.168369 -141.34302 -0.11517928 -8.7414637 -200 45 -200 45
9850000 -44.622196 -143.45522 -0.12565307 -8.8051529 -200 45 -200 45
9968000 -44.485428 -143.6299 -0.13586733 -8.8816805 -200 45 -200 45
10086000 -44.641045 -142.09982 -0.18158974 -8.9673672 -200 45 -200 45
10204000 -45.475452 -146.43112 -0.20443209 -9.058938 -200 45 -200 45
10322000 -44.425331 -145.76678 -0.18410651 -9.1543398 -200 45 -200 45
10440000 -45.570942 -154.81326 -0.18279554 -9.3264637 -200 45 -200 45
10558000 -45.715538 -149.86183 -0.18724376 -9.413147 -200 45 -200 45
10676000 -45.697762 -153.53047 -0.18297884 -9.6049643 -200 45 -200 45
10794000 -47.535778 -160.02046 -0.18876103 -9.629034 -200 45 -200 45
10912000 -46.827892 -156.87451 -0.17859943 -9.6824522 -200 45 -200 45
11030000 -47.392437 -152.54178 -0.18015927 -9.8991289 -200 45 -200 45
11148000 -48.707943 -165.43301 -0.18486664 -9.9740343 -200 45 -200 45
11266000 -46.809372 -156.55202 -0.17924739 -10.080676 -200 45 -200 45
11384000 -49.202217 -166.85561 -0.18399648 -10.167562 -200 45 -200 45
11502000 -47.985611 -164.91013 -0.17990431 -10.297722 -200 45 -200 45
11620000 -48.426773 -168.16689 -0.18275556 -10.366701 -200 45 -200 45
11738000 -48.999191 -165.20392 -0.17727508 -10.467164 -200 45 -200 45
11856000 -47.326767 -172.75331 -0.19253981 -10.658208 -200 45 -200 45
11974000 -49.441795 -174.72148 -0.17811479 -10.791687 -200 45 -200 45
12092000 -48.365486 176.07434 -0.18848063 -10.823099 -200 45 -200 45
12210000 -49.742867 -178.73283 -0.18433873 -10.913054 -200 45 -200 45
12328000 -50.403019 166.0152 -0.18391199 -11.050649 -200 45 -200 45
12446000 -48.741646 175.10133 -0.1929315 -11.149953 -200 45 -200 45
12564000 -49.237022 166.64066 -0.18512765 -11.238665 -200 45 -200 45
12682000 -49.69635 158.77274 -0.18780905 -11.309012 -200 45 -200 45
12800000 -49.122425 167.0787 -0.18474181 -11.459382 -200 45 -200 45
12918000 -50.700077 158.97937 -0.18904814 -11.572033 -200 45 -200 45
13036000 -50.488583 158.82365 -0.19410785 -11.690866 -200 45 -200 45
13154000 -49.766563 158.61458 -0.188264 -11.773624 -200 45 -200 45
13272000 -48.120628 144.52344 -0.17669263 -11.854562 -200 45 -200 45
13390000 -49.608505 145.81606 -0.18842515 -12.087528 -200 45 -200 45
13508000 -50.229794 139.87123 -0.19215506 -12.116819 -200 45 -200 45
13626000 -50.626293 143.61336 -0.18928586 -12.281006 -200 45 -200 45
13744000 -49.088886 137.50201 -0.20089178 -12.352132 -200 45 -200 45
13862000 -49.773651 139.33537 -0.19638301 -12.405935 -200 45 -200 45
13980000 -48.849697 132.53674 -0.18873924 -12.567459 -200 45 -200 45
14098000 -49.537369 130.18866 -0.19213764 -12.637279 -200 45 -200 45
14216000 -48.504543 131.41808 -0.18792742 -12.783052 -200 45 -200 45
14334000 -49.111214 121.70641 -0.19081077 -12.814189 -200 45 -200 45
14452000 -48.294918 126.29124 -0.18787275 -12.96203 -200 45 -200 45
14570000 -48.717178 120.63717 -0.19515911 -13.05313 -200 45 -200 45
14688000 -47.889019 115.44831 -0.19799513 -13.195951 -200 45 -200 45
14806000 -47.794201 115.9639 -0.18644635 -13.254481 -200 45 -200 45
14924000 -47.513088 113.41132 -0.20643519 -13.40546 -200 45 -200 45
15042000 -47.890751 114.71213 -0.19500539 -13.550713 -200 45 -200 45
15160000 -48.344849 105.24409 -0.19435248 -13.582719 -200 45 -200 45
15278000 -47.140244 114.23147 -0.18759649 -13.74132 -200 45 -200 45
15396000 -47.284496 112.39225 -0.19922483 -13.794085 -200 45 -200 45
15514000 -47.940968 107.40907 -0.19236448 -13.993931 -200 45 -200 45
15632000 -46.749123 109.37051 -0.19617696 -14.020811 -200 45 -200 45
15750000 -47.092636 106.57153 -0.19634399 -14.135395 -200 45 -200 45
15868000 -46.158978 105.17619 -0.20289108 -14.229073 -200 45 -200 45
15986000 -46.306652 101.96578 -0.19854082 -14.318536 -200 45 -200 45
16104000 -45.76519 101.3466 -0.19305737 -14.42954 -200 45 -200 45
16222000 -45.805023 100.45354 -0.19955696 -14.533166 -200 45 -200 45
16340000 -45.566582 105.45002 -0.20121098 -14.668818 -200 45 -200 45
16458000 -45.380013 99.972008 -0.20304488 -14.733109 -200 45 -200 45
16576000 -46.379025 96.427368 -0.2010508 -14.931113 -200 45 -200 45
16694000 -45.848221 94.578964 -0.20045333 -14.976089 -200 45 -200 45
16812000 -44.968624 97.62764 -0.20274436 -15.107098 -200 45 -200 45
16930000 -44.448277 93.089973 -0.19474111 -15.158963 -200 45 -200 45
17048000 -44.16328 96.013718 -0.2041205 -15.287065 -200 45 -200 45
17166000 -44.868042 91.612061 -0.19602658 -15.368679 -200 45 -200 45
17284000 -44.975636 95.990364 -0.20206539 -15.485085 -200 45 -200 45
17402000 -44.516167 89.752892 -0.20503026 -15.646234 -200 45 -200 45
17520000 -44.575581 93.844803 -0.20319824 -15.730107 -200 45 -200 45
17638000 -44.151497 91.506409 -0.19945863 -15.816857 -200 45 -200 45
17756000 -43.884598 91.404228 -0.20497674 -15.913798 -200 45 -200 45
17874000 -44.133778 88.602585 -0.20468579 -16.007053 -200 45 -200 45
17992000 -43.881046 86.627304 -0.20178124 -16.113388 -200 45 -200 45
18110000 -43.292362 89.163872 -0.20391092 -16.224239 -200 45 -200 45
18228000 -43.643425 87.162743 -0.20691964 -16.386251 -200 45 -200 45
18346000 -43.469021 85.818802 -0.20273307 -16.443851 -200 45 -200 45
18464000 -43.185123 84.103394 -0.20483825 -16.534906 -200 45 -200 45
18582000 -43.838497 84.283943 -0.19959682 -16.697338 -200 45 -200 45
18700000 -42.984127 86.248352 -0.20504849 -16.76845 -200 45 -200 45
18818000 -43.038101 85.2808 -0.21018127 -16.878389 -200 45 -200 45
18936000 -42.751957 86.06868 -0.20795389 -16.941309 -200 45 -200 45
19054000 -42.63353 83.784233 -0.20184529 -17.076132 -200 45 -200 45
19172000 -42.705273 82.89225 -0.19677708 -17.199764 -200 45 -200 45
19290000 -42.742069 82.942505 -0.20980409 -17.283096 -200 45 -200 45
19408000 -42.250572 83.1129 -0.20587747 -17.339352 -200 45 -200 45
19526000 -42.211498 80.444839 -0.19870101 -17.538109 -200 45 -200 45
19644000 -42.212162 83.756653 -0.20285805 -17.575237 -200 45 -200 45
19762000 -42.173176 82.623283 -0.20890592 -17.670546 -200 45 -200 45
19880000 -41.84734 77.876869 -0.20907696 -17.825768 -200 45 -200 45
19998000 -41.777832 75.998497 -0.21115784 -17.935289 -200 45 -200 45
20116000 -41.763969 79.607727 -0.20834972 -18.001898 -200 45 -200 45
20234000 -42.103809 78.716049 -0.21061301 -18.111715 -200 45 -200 45
20352000 -41.656631 77.690941 -0.21074021 -18.188848 -200 45 -200 45
20470000 -41.330479 73.988167 -0.20947526 -18.320421 -200 45 -200 45
20588000 -41.333363 77.04525 -0.20950605 -18.386051 -200 45 -200 45
20706000 -41.548759 77.099289 -0.20509708 -18.491419 -200 45 -200 45
20824000 -40.967976 77.714928 -0.21922649 -18.625441 -200 45 -200 45
20942000 -41.269024 77.633072 -0.20383169 -18.705542 -200 45 -200 45
21060000 -41.066582 78.03801 -0.20311733 -18.849537 -200 45 -200 45
21178000 -41.129345 75.790024 -0.20767272 -18.897476 -200 45 -200 45
21296000 -41.114799 74.768822 -0.21213435 -19.043098 -200 45 -200 45
21414000 -40.67878 73.178406 -0.2082496 -19.129122 -200 45 -200 45
21532000 -40.887711 74.267349 -0.20783983 -19.22554 -200 45 -200 45
21650000 -40.482666 75.61808 -0.2088159 -19.360018 -200 45 -200 45
21768000 -40.736916 74.577385 -0.21371448 -19.502798 -200 45 -200 45
21886000 -40.576145 74.667328 -0.21708164 -19.543737 -200 45 -200 45
22004000 -40.416832 71.56131 -0.20594692 -19.650976 -200 45 -200 45
22122000 -40.056187 72.495712 -0.20994236 -19.757473 -200 45 -200 45
22240000 -40.370831 73.555481 -0.20562258 -19.896904 -200 45 -200 45
22358000 -40.140842 75.661133 -0.21467161 -19.962654 -200 45 -200 45
22476000 -40.151939 74.361977 -0.21204537 -20.054083 -200 45 -200 45
22594000 -40.012844 70.418274 -0.20844215 -20.195427 -200 45 -200 45
22712000 -39.607292 72.126381 -0.21607584 -20.275532 -200 45 -200 45
22830000 -40.040878 69.560608 -0.20773782 -20.367498 -200 45 -200 45
22948000 -40.121925 69.922646 -0.21653073 -20.548643 -200 45 -200 45
23066000 -39.605553 71.159348 -0.21566209 -20.601585 -200 45 -200 45
23184000 -39.713646 68.837906 -0.21677217 -20.679155 -200 45 -200 45
23302000 -39.727928 69.968277 -0.21485373 -20.840481 -200 45 -200 45
23420000 -39.646255 71.084801 -0.21711814 -20.898449 -200 45 -200 45
23538000 -39.349937 68.078629 -0.21326825 -21.011534 -200 45 -200 45
23656000 -39.348061 67.296738 -0.21935244 -21.119202 -200 45 -200 45
23774000 -39.153347 67.577995 -0.21805342 -21.206167 -200 45 -200 45
23892000 -39.230774 70.183006 -0.21530671 -21.301758 -200 45 -200 45
24010000 -39.128143 68.2789 -0.21730351 -21.44239 -200 45 -200 45
24128000 -39.19706 67.294067 -0.21913978 -21.535116 -200 45 -200 45
24246000 -39.039616 69.376732 -0.22275327 -21.577723 -200 45 -200 45
24364000 -38.787895 66.769714 -0.22422132 -21.713039 -200 45 -200 45
24482000 -38.846794 67.915604 -0.21824884 -21.852757 -200 45 -200 45
24600000 -38.92025 69.059982 -0.21440256 -21.894068 -200 45 -200 45
24718000 -39.057766 67.018066 -0.22336847 -22.045696 -200 45 -200 45
24836000 -38.768734 66.183746 -0.21932551 -22.143013 -200 45 -200 45
24954000 -38.641209 67.83783 -0.22074141 -22.206867 -200 45 -200 45
25072000 -38.690609 66.017677 -0.21415454 -22.370573 -200 45 -200 45
25190000 -38.919758 64.960693 -0.21055447 -22.413723 -200 45 -200 45
25308000 -38.712231 65.405556 -0.2159369 -22.532225 -200 45 -200 45
25426000 -38.278484 65.720009 -0.22015402 -22.624184 -200 45 -200 45
25544000 -38.565899 63.409618 -0.2214271 -22.725275 -200 45 -200 45
25662000 -38.605293 63.361328 -0.22125125 -22.841644 -200 45 -200 45
25780000 -38.477688 64.209793 -0.22835732 -22.985481 -200 45 -200 45
25898000 -38.344734 62.537601 -0.21409129 -23.045828 -200 45 -200 45
26016000 -37.998596 64.877975 -0.21632951 -23.12711 -200 45 -200 45
26134000 -38.02557 63.767406 -0.2151484 -23.2675 -200 45 -200 45
26252000 -38.170307 63.946697 -0.21581359 -23.346258 -200 45 -200 45
26370000 -38.220009 63.895397 -0.22174428 -23.454531 -200 45 -200 45
26488000 -38.111008 63.63274 -0.21938953 -23.550287 -200 45 -200 45
26606000 -38.069592 64.511238 -0.22226925 -23.6672 -200 45 -200 45
26724000 -38.01775 63.90168 -0.22430305 -23.754692 -200 45 -200 45
26842000 -37.635967 63.099953 -0.21576069 -23.869141 -200 45 -200 45
26960000 -37.939137 62.585968 -0.2173495 -23.982151 -200 45 -200 45
27078000 -37.993355 64.031204 -0.21888375 -24.065111 -200 45 -200 45
27196000 -37.608448 62.646297 -0.22258 -24.142614 -200 45 -200 45
27314000 -37.7565 62.581657 -0.22472808 -24.274788 -200 45 -200 45
27432000 -37.416737 61.233994 -0.22557865 -24.400885 -200 45 -200 45
27550000 -37.9533 61.067341 -0.22621697 -24.445925 -200 45 -200 45
27668000 -37.512733 60.817726 -0.22709225 -24.617176 -200 45 -200 45
27786000 -37.459076 61.553795 -0.21907932 -24.704378 -200 45 -200 45
27904000 -37.407181 63.441147 -0.22180597 -24.760075 -200 45 -200 45
28022000 -37.555344 60.688015 -0.22033741 -24.853382 -200 45 -200 45
28140000 -37.325298 60.82032 -0.21604036 -24.995159 -200 45 -200 45
28258000 -37.513294 61.0438 -0.22493634 -25.066923 -200 45 -200 45
28376000 -37.308353 61.507782 -0.22101773 -25.206602 -200 45 -200 45
28494000 -37.219593 59.055286 -0.22264363 -25.263088 -200 45 -200 45
28612000 -37.264545 58.915661 -0.22982313 -25.395948 -200 45 -200 45
28730000 -37.096413 61.077396 -0.22246701 -25.480101 -200 45 -200 45
28848000 -37.203857 61.369884 -0.22395198 -25.584837 -200 45 -200 45
28966000 -37.095264 59.451523 -0.22935538 -25.715538 -200 45 -200 45
29084000 -37.024391 59.532661 -0.21709481 -25.764744 -200 45 -200 45
29202000 -36.966877 56.727463 -0.22435154 -25.920002 -200 45 -200 45
29320000 -36.768162 59.262581 -0.22850119 -26.01745 -200 45 -200 45
29438000 -36.858566 59.909439 -0.21802068 -26.150455 -200 45 -200 45
29556000 -36.972382 56.884052 -0.23113188 -26.221828 -200 45 -200 45
29674000 -36.912445 59.193562 -0.23629436 -26.308578 -200 45 -200 45
29792000 -36.575966 56.885124 -0.22373623 -26.39942 -200 45 -200 45
29910000 -36.95956 59.392513 -0.22684336 -26.510674 -200 45 -200 45
30028000 -36.788773 57.669987 -0.22729176 -26.624561 -200 45 -200 45
30146000 -36.688351 57.021587 -0.22620368 -26.717062 -200 45 -200 45
30264000 -36.452469 57.922237 -0.23003305 -26.827402 -200 45 -200 45
30382000 -36.354435 57.009121 -0.2361687 -26.939331 -200 45 -200 45
30500000 -36.515602 54.929363 -0.23256896 -27.029806 -200 45 -200 45
30618000 -36.741779 55.57283 -0.23201361 -27.157305 -200 45 -200 45
30736000 -36.31781 55.629642 -0.23275259 -27.229769 -200 45 -200 45
30854000 -36.462723 56.475391 -0.23484974 -27.355894 -200 45 -200 45
30972000 -36.652557 56.733688 -0.22262554 -27.438904 -200 45 -200 45
31090000 -36.204662 56.824406 -0.22488937 -27.491398 -200 45 -200 45
31208000 -36.442703 56.632717 -0.22850327 -27.717394 -200 45 -200 45
31326000 -36.209549 56.026272 -0.23333471 -27.706324 -200 45 -200 45
31444000 -36.348873 56.254429 -0.22361113 -27.765259 -200 45 -200 45
31562000 -36.290943 54.772003 -0.2292607 -27.926392 -200 45 -200 45
31680000 -36.325714 55.38168 -0.23526148 -28.054731 -200 45 -200 45
31798000 -36.147041 54.673313 -0.23475826 -28.147833 -200 45 -200 45
31916000 -36.30801 54.234528 -0.22847682 -28.27021 -200 45 -200 45
32034000 -36.111958 54.772572 -0.22957815 -28.374905 -200 45 -200 45
32152000 -36.193954 52.757675 -0.23077014 -28.437841 -200 45 -200 45
32270000 -35.934032 53.370461 -0.22740166 -28.583397 -200 45 -200 45
32388000 -36.000835 53.379379 -0.2280864 -28.677834 -200 45 -200 45
32506000 -35.840641 54.017952 -0.23210455 -28.725775 -200 45 -200 45
32624000 -35.784061 52.717697 -0.22828943 -28.903391 -200 45 -200 45
32742000 -35.99781 53.706635 -0.22984317 -28.943176 -200 45 -200 45
32860000 -35.93634 53.085911 -0.22572796 -29.064245 -200 45 -200 45
32978000 -35.996208 53.043854 -0.23051193 -29.179487 -200 45 -200 45
33096000 -35.673477 54.302784 -0.23241858 -29.264824 -200 45 -200 45
33214000 -35.67165 53.487423 -0.23110582 -29.408104 -200 45 -200 45
33332000 -35.682228 54.926788 -0.23459536 -29.506182 -200 45 -200 45
33450000 -35.515747 53.638893 -0.22971338 -29.568167 -200 45 -200 45
33568000 -35.960712 51.488049 -0.23791796 -29.69199 -200 45 -200 45
33686000 -35.676037 52.342224 -0.229248 -29.789461 -200 45 -200 45
33804000 -35.841148 50.16927 -0.23159619 -29.868544 -200 45 -200 45
33922000 -35.728535 52.585598 -0.23088987 -29.981792 -200 45 -200 45
34040000 -35.434269 53.20636 -0.23476946 -30.110701 -200 45 -200 45
34158000 -35.310242 52.862053 -0.23106886 -30.213093 -200 45 -200 45
34276000 -35.591743 51.579792 -0.23901375 -30.317034 -200 45 -200 45
34394000 -35.549541 50.566044 -0.23986691 -30.446674 -200 45 -200 45
34512000 -35.411758 51.589211 -0.2320694 -30.443356 -200 45 -200 45
34630000 -35.424938 50.948219 -0.2378121 -30.618208 -200 45 -200 45
34748000 -35.376099 50.346039 -0.23360932 -30.734831 -200 45 -200 45
