! Created Sun Apr 27 18:55:38 2025
# hz S ma R 50
! 2 Port Network Data from SP3.SP block
! freq  magS11  angS11  magS21  angS21  magS12  angS12  magS22  angS22  
!     
1000000       0.891333022        -38.4159551     4.56890036e-11        -170.325824        0.453346936         148.028462     4.56887534e-11         9.67430163
1118000       0.891206271        -38.5253895     4.56781225e-11        -170.692193        0.453596056         147.800368     4.56775603e-11         9.30754532
1236000       0.891094531        -38.5612515     4.56903733e-11        -171.063255        0.453815531         147.720768     4.56900936e-11         8.93650391
1354000       0.890942245        -38.5463762     4.57174875e-11        -171.432678         0.45411443         147.739218     4.57177017e-11         8.56746873
1472000       0.890904017        -38.4433426     4.57650652e-11        -171.771875        0.454189423         147.942939     4.57653192e-11         8.22803776
1590000       0.890716929        -38.3420355     4.57793846e-11        -172.001087        0.454556214         148.132067     4.57792297e-11         7.99868953
1708000       0.890595659        -38.2216002      4.5794602e-11        -172.158542        0.454793769         148.363205     4.57947509e-11         7.84171445
1826000       0.890482578        -38.0714966     4.58263207e-11        -172.327826        0.455015141         148.655939     4.58257813e-11         7.67171518
1944000       0.890357353        -37.9108569     4.58521794e-11        -172.507334        0.455260127         148.967116     4.58522455e-11         7.49236117
2062000       0.890251092        -37.7129879     4.58763258e-11        -172.555952        0.455467885         149.354485      4.5876166e-11         7.44402166
2180000       0.890097205        -37.5048721     4.58885911e-11         -172.49231        0.455768544         149.758883     4.58882941e-11         7.50746702
2298000       0.889949957        -37.2946863     4.59150527e-11        -172.440332        0.456055998         150.166379     4.59153381e-11         7.56053723
2416000       0.889855862        -37.0899482     4.59342407e-11        -172.389182         0.45623957         150.570267     4.59342298e-11         7.61018758
2534000       0.889742291        -36.8501328     4.59616242e-11         -172.35346        0.456461012          151.04036     4.59620302e-11         7.64704483
2652000       0.889579057        -36.6202805     4.59752707e-11        -172.312003        0.456779052         151.489375     4.59746144e-11         7.68683645
2770000       0.889438491        -36.3715349     4.60054691e-11        -172.254117          0.4570527           151.9755      4.6005545e-11         7.74542247
2888000       0.889360972        -36.1266699     4.60233409e-11        -172.205221        0.457203523         152.460642     4.60239385e-11         7.79470247
3006000       0.889188253        -35.8559477     4.60578169e-11        -172.126568        0.457539344         152.989491     4.60574629e-11         7.87345643
3124000        0.88902188        -35.6117975     4.60747267e-11        -172.029723         0.45786253         153.465232     4.60745781e-11         7.97044112
3242000       0.888768724        -35.3369254     4.61113442e-11        -171.896744        0.458353745         153.994257     4.61110201e-11         8.10356503
3360000       0.888692514        -35.0727295     4.61392374e-11        -171.795287        0.458501489         154.521808     4.61388692e-11         8.20395233
3478000        0.88838828        -34.7931798     4.61669839e-11        -171.694209        0.459090693         155.053679     4.61669737e-11         8.30601614
3596000       0.888234034        -34.5132333      4.6205287e-11        -171.569054        0.459389052          155.60509     4.62059272e-11         8.43026382
3714000       0.888039777        -34.2565361     4.62353289e-11        -171.487622        0.459764455         156.103106     4.62356655e-11         8.51274634
3832000       0.887839434        -33.9813323     4.62706535e-11        -171.358849        0.460151213         156.641099     4.62703199e-11         8.64009903
3950000       0.887624512        -33.7300223     4.63078373e-11        -171.281093        0.460565658         157.126271     4.63084201e-11         8.71858365
4068000       0.887424958        -33.4310594     4.63667946e-11        -171.147879        0.460950044         157.711731     4.63667684e-11         8.85204739
4186000       0.887253733        -33.1648362     4.63784515e-11         -171.02879        0.461279539           158.2338     4.63785719e-11         8.97189479
4304000       0.886963717        -32.8926133     4.64204701e-11        -170.899486        0.461836946          158.75547     4.64194114e-11         9.09974397
4422000        0.88673391         -32.615483     4.64563017e-11        -170.748165        0.462278025         159.292749     4.64567932e-11         9.25146908
4540000        0.88650303        -32.3136647      4.6506032e-11        -170.599594        0.462720627         159.880537     4.65064976e-11         9.40139296
4658000       0.886195322        -32.0455598     4.65472647e-11        -170.475201         0.46330967         160.391678     4.65469746e-11         9.52410242
4776000       0.885975339        -31.7913888     4.66095913e-11        -170.382347          0.4637302         160.884456     4.66102992e-11         9.61728078
4894000       0.885790143        -31.5155593     4.66500044e-11        -170.260575        0.464083853         161.427394     4.66499878e-11         9.73970422
5012000       0.885457479        -31.2202084     4.66831875e-11        -170.112877         0.46471825         161.988943      4.6682956e-11         9.88866751
5130000       0.885246616        -30.9561727      4.6732559e-11        -169.991575        0.465119801         162.506308     4.67332309e-11          10.008869
5248000       0.884903332        -30.6493972     4.67782639e-11        -169.830932        0.465772576         163.092193     4.67776222e-11          10.168969
5366000       0.884635708        -30.3800424     4.68370003e-11          -169.7061        0.466280672         163.611814     4.68363326e-11         10.2937551
5484000       0.884357072        -30.0989766      4.6882587e-11        -169.566288        0.466808921           164.1539     4.68824596e-11         10.4341705
5602000       0.884063544        -29.8174009     4.69483412e-11        -169.443218        0.467364579         164.694118     4.69471042e-11          10.558822
5720000       0.883745005        -29.5378407     4.70007532e-11        -169.323017        0.467966629         165.230414     4.70005113e-11         10.6767995
5838000       0.883449344        -29.2636866     4.70574543e-11        -169.202046        0.468524553           165.7582     4.70570319e-11         10.7966851
5956000        0.88313579         -28.955667      4.7119951e-11        -169.046192        0.469115312          166.35015     4.71201043e-11         10.9556787
6074000       0.882899308        -28.6821709      4.7155787e-11        -168.912032        0.469560232         166.891867     4.71551825e-11         11.0863804
6192000       0.882587471        -28.3965663     4.72044791e-11        -168.784771        0.470146102         167.438427     4.72039136e-11         11.2168917
6310000       0.882331602        -28.1101753     4.72380193e-11        -168.635769         0.47062612         168.004213     4.72386864e-11         11.3635985
6428000       0.881991534        -27.8074977     4.73094691e-11        -168.482419        0.471263127         168.586431     4.73085666e-11         11.5177297
6546000       0.881691303        -27.4990931     4.73576302e-11         -168.31035        0.471824593         169.190024     4.73589312e-11         11.6900746
6664000       0.881314531        -27.1961396     4.74229922e-11        -168.144006        0.472527985          169.76738     4.74226459e-11         11.8575685
6782000       0.881016509        -26.8809092     4.74904589e-11        -167.942087        0.473083408         170.392129     4.74899689e-11         12.0571504
6900000       0.880671879        -26.6032069     4.75542755e-11        -167.848584        0.473724647         170.923241     4.75539075e-11         12.1516533
7018000       0.880369571        -26.2533689     4.75878356e-11        -167.600546        0.474286219         171.622275     4.75878699e-11         12.4002904
7136000       0.880099417        -25.9043218     4.76291237e-11         -167.31979        0.474787338         172.330625     4.76281892e-11         12.6807191
7254000       0.879777365        -25.5772822     4.76617584e-11        -167.089028        0.475383833         172.982289     4.76609985e-11         12.9106981
7372000       0.879363185        -25.2186623     4.77199082e-11        -166.802676        0.476149545         173.684894      4.7719413e-11         13.1964095
7490000       0.878935015        -24.8895348     4.77528744e-11        -166.608499        0.476939451          174.31816     4.77525777e-11         13.3920545
7608000        0.87859346        -24.5226388     4.78250761e-11        -166.324387        0.477568353         175.060756     4.78250349e-11         13.6757331
7726000       0.878081903        -24.1447006     4.78830948e-11        -166.030338        0.478508278         175.792569     4.78829304e-11         13.9678121
7844000       0.877625941        -23.7608885     4.79558917e-11          -165.7313         0.47934404         176.547614      4.7955252e-11         14.2698741
7962000       0.877114622        -23.3924709     4.80561751e-11        -165.441976        0.480279022          177.25847     4.80559394e-11         14.5603388
8080000       0.876508806        -22.9737823     4.80856783e-11        -165.079343        0.481383747         178.065542     4.80851107e-11         14.9224086
8198000       0.876047602        -22.5761861     4.81416603e-11        -164.666581        0.482222562         178.866411      4.8140578e-11         15.3337504
8316000       0.875482858        -22.1805829     4.81918385e-11         -164.31037        0.483247105         179.637563     4.81920394e-11          15.689184
8434000       0.874848321        -21.7622595     4.82535777e-11        -163.966579        0.484394896        -179.557222     4.82536917e-11         16.0351252
8552000       0.874203673        -21.3713398     4.83215074e-11        -163.636475        0.485557349        -178.812875     4.83216519e-11         16.3643891
8670000       0.873610785        -21.0010368     4.84239255e-11        -163.325107         0.48662326        -178.101402     4.84240167e-11         16.6759216
8788000        0.87289111        -20.5951193     4.85177829e-11        -162.996404        0.487913014         -177.33565     4.85174107e-11         17.0027061
8906000       0.872164088        -20.1922986     4.86230523e-11         -162.70212        0.489211409        -176.583444     4.86224834e-11         17.2996011
9024000       0.871467145        -19.8306917      4.8723834e-11        -162.453384        0.490451848        -175.913645     4.87245358e-11         17.5462641
9142000        0.87084362        -19.4826652      4.8800576e-11        -162.205318        0.491558123        -175.256566     4.88006326e-11         17.7955784
9260000       0.870270885        -19.1268687      4.8858999e-11        -161.958869        0.492571403        -174.557483     4.88588987e-11         18.0414904
9378000       0.869759205        -18.8191365     4.89676796e-11        -161.778627        0.493474341        -173.957848     4.89680192e-11         18.2229102
9496000       0.869179114        -18.5109515     4.90422412e-11        -161.607234        0.494495368        -173.373116     4.90419248e-11         18.3927689
9614000       0.868604515        -18.1720646     4.91322246e-11        -161.413377        0.495503982        -172.708974     4.91325856e-11         18.5870832
9732000       0.868235619        -17.9069148     4.92119533e-11        -161.309254        0.496150088        -172.155738      4.9211873e-11         18.6904023
9850000       0.867816325        -17.6206139     4.93115745e-11        -161.195303        0.496883111        -171.564785     4.93116414e-11         18.8050881
9968000       0.867537825        -17.3930153     4.93899983e-11        -161.133669        0.497369202        -171.074946     4.93888619e-11         18.8694986
10086000       0.866361513        -16.9446096      4.9846221e-11        -160.859987        0.499415388        -170.323108     4.98460283e-11         19.1397271
10204000       0.866421522        -16.7151163     5.00832306e-11        -160.675964        0.499311272        -169.686688      5.0082867e-11         19.3224952
10322000       0.865257719        -16.2239169     4.99942792e-11        -160.278081        0.501325323        -168.818598     4.99936392e-11         19.7245414
10440000        0.86440481        -15.8930112     5.01044836e-11        -160.043398        0.502794515        -168.247003     5.01042582e-11         19.9552591
10558000       0.863565171        -15.5005399     5.01864259e-11        -159.793705        0.504235257        -167.515281     5.01862619e-11         20.2108941
10676000       0.862984512        -15.2107527     5.02969212e-11         -159.49462        0.505228397        -166.935825     5.02969447e-11         20.5033107
10794000        0.86210395        -14.7611741      5.0427308e-11        -159.201187        0.506729494        -166.041753     5.04278599e-11         20.7983682
10912000       0.861017227        -14.2927477     5.04930654e-11        -158.882667        0.508573825        -165.169102     5.04924005e-11         21.1169486
11030000        0.86064768        -14.0625647     5.05429398e-11        -158.635594        0.509198951         -164.67178     5.05426632e-11         21.3681601
11148000       0.859514836        -13.6412092     5.07388444e-11        -158.451393         0.51110884        -163.939632     5.07389242e-11         21.5486916
11266000       0.858692515        -13.2853825     5.07805866e-11        -158.201022        0.512489184        -163.258889     5.07799089e-11         21.7986696
11384000        0.85761048        -12.8276142     5.08867499e-11        -157.795667        0.514297836        -162.383583     5.08874522e-11         22.2018675
11502000       0.856537051        -12.4337167     5.10869839e-11        -157.549904        0.516083598        -161.699011     5.10879559e-11         22.4492022
11620000       0.855942959        -12.0964267      5.1141174e-11         -157.29546        0.517068323        -160.938404      5.1141428e-11         22.7032425
11738000       0.854599646        -11.5803863     5.12188763e-11        -156.819058        0.519285514        -159.987808     5.12193489e-11         23.1816677
11856000       0.854626828         -11.493294     5.13908325e-11        -156.792767        0.519240778        -159.686408     5.13904715e-11          23.207001
11974000       0.852802971        -10.9214366     5.14809387e-11        -156.368857         0.52223088        -158.789269      5.1481625e-11         23.6297639
12092000       0.852077686        -10.5519021     5.16239853e-11        -156.085945        0.523413428        -157.947312     5.16237392e-11         23.9133908
12210000       0.850743605        -10.0822684     5.17177519e-11        -155.715267        0.525579032        -157.093747     5.17173562e-11         24.2823076
12328000       0.849970234        -9.75660242     5.18212862e-11        -155.411444        0.526828816        -156.406043     5.18226366e-11         24.5868555
12446000       0.848735604        -9.33423622     5.20698012e-11        -155.178584        0.528815539        -155.641486     5.20700544e-11         24.8205209
12564000       0.847680211        -8.89261168     5.21866422e-11        -154.738662        0.530505665        -154.671496     5.21864125e-11         25.2606419
12682000       0.846382069        -8.44930696     5.23257575e-11        -154.404958        0.532574307        -153.836011      5.2325886e-11         25.5944987
12800000       0.845286101        -8.12593793     5.23471124e-11        -154.241077        0.534312088        -153.323819     5.23466878e-11         25.7591991
12918000        0.84440628        -7.78185439     5.24904441e-11        -153.965764        0.535701441         -152.55129     5.24905872e-11         26.0315793
13036000        0.84304023        -7.35047003     5.27059272e-11        -153.628293        0.537848651        -151.777585     5.27059948e-11         26.3715888
13154000       0.841903982        -6.99325742     5.27887206e-11        -153.417979        0.539625505        -151.120528     5.27911854e-11         26.5811571
13272000       0.840090363        -6.42973008     5.28832597e-11        -152.908564        0.542444635        -150.082058     5.28828224e-11         27.0933542
13390000       0.838982801        -6.10399188      5.3089297e-11        -152.639122        0.544156098        -149.508689     5.30902724e-11         27.3608158
13508000       0.837755787        -5.68908221     5.32410217e-11        -152.280255         0.54604326        -148.586857     5.32424147e-11           27.71706
13626000       0.836572824        -5.34749748     5.33560142e-11        -152.073696        0.547853913        -147.995818     5.33552217e-11         27.9289694
13744000        0.83620246        -5.15713749     5.35399397e-11         -151.92917        0.548419042        -147.337435      5.3539745e-11         28.0695169
13862000       0.833761283        -4.47913279     5.36969172e-11        -151.404186        0.552123285        -146.147612     5.36969435e-11         28.5969583
13980000       0.832023003        -4.02654121     5.38365297e-11        -151.024457        0.554739329        -145.430537     5.38356636e-11         28.9750045
14098000       0.830376935        -3.57481094     5.40663557e-11        -150.729839        0.557200274        -144.604458     5.40650848e-11         29.2730386
14216000       0.828906116         -3.1758268      5.4121747e-11        -150.377592        0.559385959         -143.84517      5.4122126e-11         29.6245324
14334000       0.827344575        -2.74041739     5.42738331e-11        -150.020612        0.561692935        -142.891323     5.42752949e-11         29.9797756
14452000       0.825470658        -2.28140025     5.44439294e-11        -149.714406        0.564443259        -142.209133     5.44438631e-11         30.2873171
14570000        0.82400465        -1.88225909     5.46802982e-11        -149.372428        0.566581272        -141.255616     5.46804526e-11         30.6274123
14688000        0.82247873        -1.50578197     5.48446908e-11        -149.025815         0.56879411        -140.551339     5.48464128e-11         30.9702533
14806000       0.820058336       -0.914757867      5.5031583e-11         -148.61021        0.572278189        -139.500046     5.50319157e-11         31.3924227
14924000       0.819309485       -0.726715857     5.52776836e-11        -148.467428        0.573349778        -139.010944       5.527839e-11          31.532412
15042000       0.816946315       -0.179674501     5.53353076e-11        -147.915222        0.576711989        -138.107812     5.53363003e-11         32.0834314
15160000       0.814749376        0.326602563     5.55112065e-11        -147.622231        0.579811568        -137.087712     5.55111417e-11         32.3735994
15278000       0.812622245        0.808981288     5.56906865e-11        -147.277562        0.582789058        -136.348704     5.56902847e-11         32.7268013
15396000       0.811054986           1.155061     5.59514336e-11        -146.889054        0.584968212        -135.431461     5.59528478e-11         33.1099023
15514000       0.808704278         1.66322158     5.60587728e-11        -146.422287        0.588213729         -134.61779     5.60583902e-11         33.5774772
